T6A28 000:005.151   SEGGER J-Link V7.82 Log File
T6A28 000:005.280   DLL Compiled: Oct 13 2022 13:32:51
T6A28 000:005.284   Logging started @ 2026-01-06 08:37
T6A28 000:005.287 - 5.288ms
T6A28 000:005.295 JLINK_SetWarnOutHandler(...)
T6A28 000:005.300 - 0.005ms
T6A28 000:005.303 JLINK_OpenEx(...)
T6A28 000:010.555   Firmware: J-Link V9 compiled Dec  8 2023 20:16:22
T6A28 000:011.262   Firmware: J-Link V9 compiled Dec  8 2023 20:16:22
T6A28 000:011.404   Decompressing FW timestamp took 94 us
T6A28 000:020.800   Hardware: V9.70
T6A28 000:020.822   S/N: 602712420
T6A28 000:020.826   OEM: SEGGER
T6A28 000:020.830   Feature(s): GDB, RDI, FlashBP, FlashDL, JFlash
T6A28 000:024.302   TELNET listener socket opened on port 19021
T6A28 000:024.421   WEBSRV WEBSRV_Init(): Starting webserver thread(s)
T6A28 000:024.480   WEBSRV Failed to put socket into listener state (port 19080)
T6A28 000:024.540   WEBSRV Webserver running on local port 19081
T6A28 000:030.369 - 25.080ms returns "O.K."
T6A28 000:030.483 JLINK_GetEmuCaps()
T6A28 000:030.488 - 0.007ms returns 0xB9FF7BBF
T6A28 000:030.496 JLINK_TIF_GetAvailable(...)
T6A28 000:031.143 - 0.649ms
T6A28 000:031.164 JLINK_SetErrorOutHandler(...)
T6A28 000:031.167 - 0.004ms
T6A28 000:031.188 JLINK_ExecCommand("ProjectFile = "D:\Users\18065\Desktop\boot_bug\boot_update\boot_update_mod\MDK-ARM\JLinkSettings.ini"", ...). 
T6A28 000:039.659   XML file found at: C:\Users\18065\AppData\Roaming\SEGGER\JLinkDevices\Autochips\AC7802x\AC7802x_Devices.xml
T6A28 000:039.779   C:\Users\18065\AppData\Roaming\SEGGER\JLinkDevices\Autochips\AC7802x\AC7802x_Devices.xml evaluated successfully.
T6A28 000:039.789     Device entry created:  AC7802x
T6A28 000:039.796       ChipInfo:
T6A28 000:039.801         Vendor:          Autochips
T6A28 000:039.806         Name:            AC7802x
T6A28 000:039.811         WorkRAMAddr:     0x20000000
T6A28 000:039.816         WorkRAMSize:     0x00001000
T6A28 000:039.824         Core:            JLINK_CORE_CORTEX_M0
T6A28 000:039.829       FlashBankInfo:
T6A28 000:039.833         Name:            Internal code flash
T6A28 000:039.837         BaseAddr:        0x08000000
T6A28 000:039.842         AlwaysPresent:   1
T6A28 000:039.900         LoaderInfo:
T6A28 000:039.905           Name:            Default
T6A28 000:039.909           MaxSize:         0x00008000
T6A28 000:039.913           Loader:          C:\Users\18065\AppData\Roaming\SEGGER\JLinkDevices\Autochips\AC7802x\AC7802x_32KB.FLM
T6A28 000:039.918           LoaderType:      FLASH_ALGO_TYPE_OPEN
T6A28 000:040.078   XML file found at: C:\Users\18065\AppData\Roaming\SEGGER\JLinkDevices\Autochips\AC7803x\AC7803x_Devices.xml
T6A28 000:040.153   C:\Users\18065\AppData\Roaming\SEGGER\JLinkDevices\Autochips\AC7803x\AC7803x_Devices.xml evaluated successfully.
T6A28 000:040.159     Device entry created:  AC7803x
T6A28 000:040.163       ChipInfo:
T6A28 000:040.167         Vendor:          Autochips
T6A28 000:040.172         Name:            AC7803x
T6A28 000:040.177         WorkRAMAddr:     0x20000000
T6A28 000:040.181         WorkRAMSize:     0x00010000
T6A28 000:040.186         Core:            JLINK_CORE_CORTEX_M0
T6A28 000:040.191       FlashBankInfo:
T6A28 000:040.196         Name:            P-lash
T6A28 000:040.200         BaseAddr:        0x08000000
T6A28 000:040.205         AlwaysPresent:   1
T6A28 000:040.256         LoaderInfo:
T6A28 000:040.261           Name:            Default
T6A28 000:040.265           MaxSize:         0x00040000
T6A28 000:040.269           Loader:          C:\Users\18065\AppData\Roaming\SEGGER\JLinkDevices\Autochips\AC7803x\AC7803x_PD256KB.FLM
T6A28 000:040.274           LoaderType:      FLASH_ALGO_TYPE_OPEN
T6A28 000:040.278       FlashBankInfo:
T6A28 000:040.282         Name:            D-Flash
T6A28 000:040.287         BaseAddr:        0x08040000
T6A28 000:040.291         AlwaysPresent:   1
T6A28 000:040.338         LoaderInfo:
T6A28 000:040.342           Name:            Default
T6A28 000:040.347           MaxSize:         0x00040000
T6A28 000:040.406           Loader:          C:\Users\18065\AppData\Roaming\SEGGER\JLinkDevices\Autochips\AC7803x\AC7803x_PD256KB.FLM
T6A28 000:040.412           LoaderType:      FLASH_ALGO_TYPE_OPEN
T6A28 000:040.613   XML file found at: C:\Users\18065\AppData\Roaming\SEGGER\JLinkDevices\Autochips\AC7840x\AC7840x_Devices.xml
T6A28 000:040.682   C:\Users\18065\AppData\Roaming\SEGGER\JLinkDevices\Autochips\AC7840x\AC7840x_Devices.xml evaluated successfully.
T6A28 000:040.688     Device entry created:  AC7840x
T6A28 000:040.691       ChipInfo:
T6A28 000:040.696         Vendor:          Autochips
T6A28 000:040.700         Name:            AC7840x
T6A28 000:040.705         WorkRAMAddr:     0x1FFF0000
T6A28 000:040.709         WorkRAMSize:     0x0001F000
T6A28 000:040.714         Core:            JLINK_CORE_CORTEX_M4
T6A28 000:040.719       FlashBankInfo:
T6A28 000:040.723         Name:            P-Flash
T6A28 000:040.728         AlwaysPresent:   1
T6A28 000:040.777         LoaderInfo:
T6A28 000:040.781           Name:            Default
T6A28 000:040.786           MaxSize:         0x00100000
T6A28 000:040.790           Loader:          C:\Users\18065\AppData\Roaming\SEGGER\JLinkDevices\Autochips\AC7840x\AC7840X_P1024KB.FLM
T6A28 000:040.794           LoaderType:      FLASH_ALGO_TYPE_OPEN
T6A28 000:040.799       FlashBankInfo:
T6A28 000:040.803         Name:            D-Flash
T6A28 000:040.807         BaseAddr:        0x01000000
T6A28 000:040.811         AlwaysPresent:   1
T6A28 000:040.857         LoaderInfo:
T6A28 000:040.861           Name:            Default
T6A28 000:040.865           MaxSize:         0x00020000
T6A28 000:040.870           Loader:          C:\Users\18065\AppData\Roaming\SEGGER\JLinkDevices\Autochips\AC7840x\AC7840X_D128KB.FLM
T6A28 000:040.874           LoaderType:      FLASH_ALGO_TYPE_OPEN
T6A28 000:041.047   XML file found at: D:\Keil_v5\ARM\Segger\JLinkDevices.xml
T6A28 000:041.102   D:\Keil_v5\ARM\Segger\JLinkDevices.xml evaluated successfully.
T6A28 000:041.108     Device entry created:  CVM0114
T6A28 000:041.111       ChipInfo:
T6A28 000:041.116         Vendor:          CVA BLUE WHALE
T6A28 000:041.120         Name:            CVM0114
T6A28 000:041.125         WorkRAMAddr:     0x20000000
T6A28 000:041.129         WorkRAMSize:     0x00004400
T6A28 000:041.134         Core:            JLINK_CORE_CORTEX_M0
T6A28 000:041.162         Script:          D:\Keil_v5\ARM\Segger\Devices\CVA_BLUE_WHALE\CVM01xx\CVM0114.JLinkScript
T6A28 000:041.167       FlashBankInfo:
T6A28 000:041.171         Name:            Internes Flash
T6A28 000:041.214         LoaderInfo:
T6A28 000:041.219           Name:            Internes Flash
T6A28 000:041.223           MaxSize:         0x00010000
T6A28 000:041.228           Loader:          D:\Keil_v5\ARM\Segger\Devices\CVA_BLUE_WHALE\CVM01xx\CVM0114_PFLASH.FLM
T6A28 000:041.232           LoaderType:      FLASH_ALGO_TYPE_OPEN
T6A28 000:041.239     Device entry created:  CVM0116
T6A28 000:041.242       ChipInfo:
T6A28 000:041.246         Vendor:          CVA BLUE WHALE
T6A28 000:041.251         Name:            CVM0116
T6A28 000:041.255         WorkRAMAddr:     0x20000000
T6A28 000:041.259         WorkRAMSize:     0x00004400
T6A28 000:041.264         Core:            JLINK_CORE_CORTEX_M0
T6A28 000:041.287         Script:          D:\Keil_v5\ARM\Segger\Devices\CVA_BLUE_WHALE\CVM01xx\CVM0116.JLinkScript
T6A28 000:041.292       FlashBankInfo:
T6A28 000:041.296         Name:            Internes Flash
T6A28 000:041.338         LoaderInfo:
T6A28 000:041.343           Name:            Internes Flash
T6A28 000:041.347           MaxSize:         0x00020000
T6A28 000:041.352           Loader:          D:\Keil_v5\ARM\Segger\Devices\CVA_BLUE_WHALE\CVM01xx\CVM0116_PFLASH.FLM
T6A28 000:041.362           LoaderType:      FLASH_ALGO_TYPE_OPEN
T6A28 000:041.369     Device entry created:  CVM0118
T6A28 000:041.372       ChipInfo:
T6A28 000:041.376         Vendor:          CVA BLUE WHALE
T6A28 000:041.380         Name:            CVM0118
T6A28 000:041.384         WorkRAMAddr:     0x20000000
T6A28 000:041.392         WorkRAMSize:     0x00006400
T6A28 000:041.396         Core:            JLINK_CORE_CORTEX_M0
T6A28 000:041.421         Script:          D:\Keil_v5\ARM\Segger\Devices\CVA_BLUE_WHALE\CVM01xx\CVM0118.JLinkScript
T6A28 000:041.425       FlashBankInfo:
T6A28 000:041.430         Name:            Internes Flash
T6A28 000:041.477         LoaderInfo:
T6A28 000:041.482           Name:            Internes Flash
T6A28 000:041.486           MaxSize:         0x00038000
T6A28 000:041.491           Loader:          D:\Keil_v5\ARM\Segger\Devices\CVA_BLUE_WHALE\CVM01xx\CVM0118_PFLASH.FLM
T6A28 000:041.495           LoaderType:      FLASH_ALGO_TYPE_OPEN
T6A28 000:041.501     Device entry created:  CVM0126
T6A28 000:041.505       ChipInfo:
T6A28 000:041.509         Vendor:          CVA BLUE WHALE
T6A28 000:041.513         Name:            CVM0126
T6A28 000:041.517         WorkRAMAddr:     0x20000000
T6A28 000:041.522         WorkRAMSize:     0x00002000
T6A28 000:041.526         Core:            JLINK_CORE_CORTEX_M0
T6A28 000:041.550         Script:          D:\Keil_v5\ARM\Segger\Devices\CVA_BLUE_WHALE\CVM01xx\CVM0126.JLinkScript
T6A28 000:041.555       FlashBankInfo:
T6A28 000:041.559         Name:            Internes Flash
T6A28 000:041.595         LoaderInfo:
T6A28 000:041.600           Name:            Internes Flash
T6A28 000:041.604           MaxSize:         0x00020000
T6A28 000:041.609           Loader:          D:\Keil_v5\ARM\Segger\Devices\CVA_BLUE_WHALE\CVM01xx\CVM0126_PFLASH.FLM
T6A28 000:041.613           LoaderType:      FLASH_ALGO_TYPE_OPEN
T6A28 000:041.619     Device entry created:  CVM0128
T6A28 000:041.622       ChipInfo:
T6A28 000:041.626         Vendor:          CVA BLUE WHALE
T6A28 000:041.630         Name:            CVM0128
T6A28 000:041.635         WorkRAMAddr:     0x20000000
T6A28 000:041.639         WorkRAMSize:     0x00004400
T6A28 000:041.643         Core:            JLINK_CORE_CORTEX_M0
T6A28 000:041.666         Script:          D:\Keil_v5\ARM\Segger\Devices\CVA_BLUE_WHALE\CVM01xx\CVM0128.JLinkScript
T6A28 000:041.670       FlashBankInfo:
T6A28 000:041.674         Name:            Internes Flash
T6A28 000:041.718         LoaderInfo:
T6A28 000:041.723           Name:            Internes Flash
T6A28 000:041.727           MaxSize:         0x00038000
T6A28 000:041.731           Loader:          D:\Keil_v5\ARM\Segger\Devices\CVA_BLUE_WHALE\CVM01xx\CVM0128_PFLASH.FLM
T6A28 000:041.736           LoaderType:      FLASH_ALGO_TYPE_OPEN
T6A28 000:041.742     Device entry created:  CVM0144A
T6A28 000:041.745       ChipInfo:
T6A28 000:041.750         Vendor:          CVA BLUE WHALE
T6A28 000:041.754         Name:            CVM0144A
T6A28 000:041.758         WorkRAMAddr:     0x20000000
T6A28 000:041.763         WorkRAMSize:     0x0000F000
T6A28 000:041.768         Core:            JLINK_CORE_CORTEX_M4
T6A28 000:041.791         Script:          D:\Keil_v5\ARM\Segger\Devices\CVA_BLUE_WHALE\CVM01xx\CVM0144A.JLinkScript
T6A28 000:041.796       FlashBankInfo:
T6A28 000:041.800         Name:            Internes Flash
T6A28 000:041.838         LoaderInfo:
T6A28 000:041.843           Name:            Internes Flash
T6A28 000:041.847           MaxSize:         0x00080000
T6A28 000:041.852           Loader:          D:\Keil_v5\ARM\Segger\Devices\CVA_BLUE_WHALE\CVM01xx\CVM0144A_PFLASH.FLM
T6A28 000:041.856           LoaderType:      FLASH_ALGO_TYPE_OPEN
T6A28 000:041.862     Device entry created:  CVM0142
T6A28 000:041.865       ChipInfo:
T6A28 000:041.869         Vendor:          CVA BLUE WHALE
T6A28 000:041.874         Name:            CVM0142
T6A28 000:041.878         WorkRAMAddr:     0x20000000
T6A28 000:041.882         WorkRAMSize:     0x00007000
T6A28 000:041.887         Core:            JLINK_CORE_CORTEX_M4
T6A28 000:041.911         Script:          D:\Keil_v5\ARM\Segger\Devices\CVA_BLUE_WHALE\CVM01xx\CVM0142.JLinkScript
T6A28 000:041.915       FlashBankInfo:
T6A28 000:041.920         Name:            Internes Flash
T6A28 000:041.964         LoaderInfo:
T6A28 000:041.968           Name:            Internes Flash
T6A28 000:041.973           MaxSize:         0x00040000
T6A28 000:041.977           Loader:          D:\Keil_v5\ARM\Segger\Devices\CVA_BLUE_WHALE\CVM01xx\CVM0142_PFLASH.FLM
T6A28 000:041.981           LoaderType:      FLASH_ALGO_TYPE_OPEN
T6A28 000:041.989     Device entry created:  CVM0144
T6A28 000:041.992       ChipInfo:
T6A28 000:041.997         Vendor:          CVA BLUE WHALE
T6A28 000:042.001         Name:            CVM0144
T6A28 000:042.005         WorkRAMAddr:     0x20000000
T6A28 000:042.009         WorkRAMSize:     0x0000F000
T6A28 000:042.014         Core:            JLINK_CORE_CORTEX_M4
T6A28 000:042.033         Script:          D:\Keil_v5\ARM\Segger\Devices\CVA_BLUE_WHALE\CVM01xx\CVM0144.JLinkScript
T6A28 000:042.037       FlashBankInfo:
T6A28 000:042.041         Name:            Internes Flash
T6A28 000:042.084         LoaderInfo:
T6A28 000:042.088           Name:            Internes Flash
T6A28 000:042.093           MaxSize:         0x00080000
T6A28 000:042.097           Loader:          D:\Keil_v5\ARM\Segger\Devices\CVA_BLUE_WHALE\CVM01xx\CVM0144_PFLASH.FLM
T6A28 000:042.101           LoaderType:      FLASH_ALGO_TYPE_OPEN
T6A28 000:042.107     Device entry created:  CVM0146
T6A28 000:042.110       ChipInfo:
T6A28 000:042.114         Vendor:          CVA BLUE WHALE
T6A28 000:042.119         Name:            CVM0146
T6A28 000:042.123         WorkRAMAddr:     0x20000000
T6A28 000:042.127         WorkRAMSize:     0x0000F000
T6A28 000:042.132         Core:            JLINK_CORE_CORTEX_M4
T6A28 000:042.154         Script:          D:\Keil_v5\ARM\Segger\Devices\CVA_BLUE_WHALE\CVM01xx\CVM0146.JLinkScript
T6A28 000:042.159       FlashBankInfo:
T6A28 000:042.163         Name:            Internes Flash
T6A28 000:042.204         LoaderInfo:
T6A28 000:042.209           Name:            Internes Flash
T6A28 000:042.213           MaxSize:         0x00100000
T6A28 000:042.217           Loader:          D:\Keil_v5\ARM\Segger\Devices\CVA_BLUE_WHALE\CVM01xx\CVM0146_PFLASH.FLM
T6A28 000:042.222           LoaderType:      FLASH_ALGO_TYPE_OPEN
T6A28 000:042.321 - 11.135ms returns 0x00
T6A28 000:045.584 JLINK_ExecCommand("Device = STM32F103CB", ...). 
T6A28 000:047.877   Device "STM32F103CB" selected.
T6A28 000:048.402 - 2.804ms returns 0x00
T6A28 000:048.414 JLINK_ExecCommand("DisableConnectionTimeout", ...). 
T6A28 000:048.420 - 0.003ms returns 0x01
T6A28 000:048.425 JLINK_GetHardwareVersion()
T6A28 000:048.428 - 0.004ms returns 97000
T6A28 000:048.436 JLINK_GetDLLVersion()
T6A28 000:048.439 - 0.004ms returns 78200
T6A28 000:048.443 JLINK_GetOEMString(...)
T6A28 000:048.447 JLINK_GetFirmwareString(...)
T6A28 000:048.450 - 0.004ms
T6A28 000:053.467 JLINK_GetDLLVersion()
T6A28 000:053.484 - 0.018ms returns 78200
T6A28 000:053.488 JLINK_GetCompileDateTime()
T6A28 000:053.491 - 0.004ms
T6A28 000:055.151 JLINK_GetFirmwareString(...)
T6A28 000:055.165 - 0.014ms
T6A28 000:056.842 JLINK_GetHardwareVersion()
T6A28 000:056.854 - 0.013ms returns 97000
T6A28 000:058.504 JLINK_GetSN()
T6A28 000:058.515 - 0.012ms returns 602712420
T6A28 000:059.994 JLINK_GetOEMString(...)
T6A28 000:063.321 JLINK_TIF_Select(JLINKARM_TIF_SWD)
T6A28 000:065.351 - 2.038ms returns 0x00
T6A28 000:065.376 JLINK_HasError()
T6A28 000:065.392 JLINK_SetSpeed(5000)
T6A28 000:065.720 - 0.352ms
T6A28 000:065.765 JLINK_GetId()
T6A28 000:067.937   InitTarget() start
T6A28 000:067.959    J-Link Script File: Executing InitTarget()
T6A28 000:080.139   InitTarget() end
T6A28 000:083.096   Found SW-DP with ID 0x2BA01477
T6A28 000:088.762   DPIDR: 0x2BA01477
T6A28 000:090.521   CoreSight SoC-400 or earlier
T6A28 000:092.097   Scanning AP map to find all available APs
T6A28 000:095.033   AP[1]: Stopped AP scan as end of AP map has been reached
T6A28 000:096.873   AP[0]: AHB-AP (IDR: 0x24770011)
T6A28 000:098.529   Iterating through AP map to find AHB-AP to use
T6A28 000:101.663   AP[0]: Core found
T6A28 000:103.448   AP[0]: AHB-AP ROM base: 0xE00FF000
T6A28 000:105.951   CPUID register: 0x412FC231. Implementer code: 0x41 (ARM)
T6A28 000:108.482   Found Cortex-M3 r2p1, Little endian.
T6A28 000:109.454   -- Max. mem block: 0x00010908
T6A28 000:113.102   CPU_ReadMem(4 bytes @ 0xE000EDF0)
T6A28 000:113.754   CPU_ReadMem(4 bytes @ 0xE0002000)
T6A28 000:116.639   FPUnit: 6 code (BP) slots and 2 literal slots
T6A28 000:116.656   CPU_ReadMem(4 bytes @ 0xE000EDFC)
T6A28 000:117.347   CPU_ReadMem(4 bytes @ 0xE0001000)
T6A28 000:117.900   CPU_WriteMem(4 bytes @ 0xE0001000)
T6A28 000:118.504   CPU_ReadMem(4 bytes @ 0xE000ED88)
T6A28 000:119.314   CPU_WriteMem(4 bytes @ 0xE000ED88)
T6A28 000:119.816   CPU_ReadMem(4 bytes @ 0xE000ED88)
T6A28 000:120.399   CPU_WriteMem(4 bytes @ 0xE000ED88)
T6A28 000:123.194   CoreSight components:
T6A28 000:125.274   ROMTbl[0] @ E00FF000
T6A28 000:125.291   CPU_ReadMem(64 bytes @ 0xE00FF000)
T6A28 000:126.262   CPU_ReadMem(32 bytes @ 0xE000EFE0)
T6A28 000:129.092   [0][0]: E000E000 CID B105E00D PID 000BB000 SCS
T6A28 000:129.117   CPU_ReadMem(32 bytes @ 0xE0001FE0)
T6A28 000:131.705   [0][1]: E0001000 CID B105E00D PID 003BB002 DWT
T6A28 000:131.722   CPU_ReadMem(32 bytes @ 0xE0002FE0)
T6A28 000:134.026   [0][2]: E0002000 CID B105E00D PID 002BB003 FPB
T6A28 000:134.042   CPU_ReadMem(32 bytes @ 0xE0000FE0)
T6A28 000:136.508   [0][3]: E0000000 CID B105E00D PID 003BB001 ITM
T6A28 000:136.527   CPU_ReadMem(32 bytes @ 0xE0040FE0)
T6A28 000:139.174   [0][4]: E0040000 CID B105900D PID 003BB923 TPIU-Lite
T6A28 000:139.843 - 74.089ms returns 0x2BA01477
T6A28 000:139.900 JLINK_GetDLLVersion()
T6A28 000:139.904 - 0.005ms returns 78200
T6A28 000:139.908 JLINK_CORE_GetFound()
T6A28 000:139.912 - 0.004ms returns 0x30000FF
T6A28 000:139.960 JLINK_GetDebugInfo(0x100 = JLINKARM_ROM_TABLE_ADDR_INDEX)
T6A28 000:139.975   Value=0xE00FF000
T6A28 000:139.979 - 0.020ms returns 0
T6A28 000:141.889 JLINK_GetDebugInfo(0x100 = JLINKARM_ROM_TABLE_ADDR_INDEX)
T6A28 000:141.900   Value=0xE00FF000
T6A28 000:141.905 - 0.017ms returns 0
T6A28 000:141.909 JLINK_GetDebugInfo(0x101 = JLINKARM_DEBUG_INFO_ETM_ADDR_INDEX)
T6A28 000:141.912   Value=0x00000000
T6A28 000:141.916 - 0.009ms returns 0
T6A28 000:141.928 JLINK_ReadMemEx(0xE0041FF0, 0x10 Bytes, Flags = 0x02000004)
T6A28 000:141.951   CPU_ReadMem(16 bytes @ 0xE0041FF0)
T6A28 000:142.703   Data:  00 00 00 00 00 00 00 00 00 00 00 00 00 00 00 00
T6A28 000:142.715 - 0.789ms returns 16 (0x10)
T6A28 000:142.752 JLINK_GetDebugInfo(0x102 = JLINKARM_DEBUG_INFO_MTB_ADDR_INDEX)
T6A28 000:142.760   Value=0x00000000
T6A28 000:142.764 - 0.013ms returns 0
T6A28 000:142.768 JLINK_GetDebugInfo(0x103 = JLINKARM_DEBUG_INFO_TPIU_ADDR_INDEX)
T6A28 000:142.771   Value=0xE0040000
T6A28 000:142.775 - 0.008ms returns 0
T6A28 000:142.779 JLINK_GetDebugInfo(0x104 = JLINKARM_DEBUG_INFO_ITM_ADDR_INDEX)
T6A28 000:142.782   Value=0xE0000000
T6A28 000:142.786 - 0.008ms returns 0
T6A28 000:142.789 JLINK_GetDebugInfo(0x105 = JLINKARM_DEBUG_INFO_DWT_ADDR_INDEX)
T6A28 000:142.792   Value=0xE0001000
T6A28 000:142.797 - 0.008ms returns 0
T6A28 000:142.800 JLINK_GetDebugInfo(0x106 = JLINKARM_DEBUG_INFO_FPB_ADDR_INDEX)
T6A28 000:142.803   Value=0xE0002000
T6A28 000:142.807 - 0.008ms returns 0
T6A28 000:142.811 JLINK_GetDebugInfo(0x107 = JLINKARM_DEBUG_INFO_NVIC_ADDR_INDEX)
T6A28 000:142.814   Value=0xE000E000
T6A28 000:142.818 - 0.008ms returns 0
T6A28 000:142.821 JLINK_GetDebugInfo(0x10C = JLINKARM_DEBUG_INFO_DBG_ADDR_INDEX)
T6A28 000:142.824   Value=0xE000EDF0
T6A28 000:142.828 - 0.008ms returns 0
T6A28 000:142.832 JLINK_GetDebugInfo(0x01 = Unknown)
T6A28 000:142.840   Value=0x00000000
T6A28 000:142.844 - 0.012ms returns 0
T6A28 000:142.847 JLINK_ReadMemU32(0xE000ED00, 0x1 Items)
T6A28 000:142.856   CPU_ReadMem(4 bytes @ 0xE000ED00)
T6A28 000:143.388   Data:  31 C2 2F 41
T6A28 000:143.398   Debug reg: CPUID
T6A28 000:143.402 - 0.556ms returns 1 (0x1)
T6A28 000:143.426 JLINK_GetDebugInfo(0x10F = JLINKARM_DEBUG_INFO_HAS_CORTEX_M_SECURITY_EXT_INDEX)
T6A28 000:143.433   Value=0x00000000
T6A28 000:143.439 - 0.013ms returns 0
T6A28 000:143.443 JLINK_HasError()
T6A28 000:143.447 JLINK_SetResetType(JLINKARM_CM3_RESET_TYPE_NORMAL)
T6A28 000:143.451 - 0.004ms returns JLINKARM_CM3_RESET_TYPE_NORMAL
T6A28 000:143.455 JLINK_Reset()
T6A28 000:143.523   CPU is running
T6A28 000:143.529   CPU_WriteMem(4 bytes @ 0xE000EDF0)
T6A28 000:144.204   CPU is running
T6A28 000:144.223   CPU_WriteMem(4 bytes @ 0xE000EDFC)
T6A28 000:146.964   Reset: Halt core after reset via DEMCR.VC_CORERESET.
T6A28 000:149.963   Reset: Reset device via AIRCR.SYSRESETREQ.
T6A28 000:149.981   CPU is running
T6A28 000:149.989   CPU_WriteMem(4 bytes @ 0xE000ED0C)
T6A28 000:203.595   CPU_ReadMem(4 bytes @ 0xE000EDF0)
T6A28 000:204.259   CPU_ReadMem(4 bytes @ 0xE000EDF0)
T6A28 000:204.789   CPU is running
T6A28 000:204.795   CPU_WriteMem(4 bytes @ 0xE000EDF0)
T6A28 000:205.357   CPU is running
T6A28 000:205.362   CPU_WriteMem(4 bytes @ 0xE000EDFC)
T6A28 000:211.472   CPU_ReadMem(4 bytes @ 0xE000EDF0)
T6A28 000:214.651   CPU_WriteMem(4 bytes @ 0xE0002000)
T6A28 000:215.243   CPU_ReadMem(4 bytes @ 0xE000EDFC)
T6A28 000:215.826   CPU_ReadMem(4 bytes @ 0xE0001000)
T6A28 000:216.448 - 72.995ms
T6A28 000:216.479 JLINK_Halt()
T6A28 000:216.483 - 0.005ms returns 0x00
T6A28 000:216.490 JLINK_ReadMemU32(0xE000EDF0, 0x1 Items)
T6A28 000:216.499   CPU_ReadMem(4 bytes @ 0xE000EDF0)
T6A28 000:217.052   Data:  03 00 03 00
T6A28 000:217.058   Debug reg: DHCSR
T6A28 000:217.062 - 0.573ms returns 1 (0x1)
T6A28 000:217.084 JLINK_WriteU32_64(0xE000EDF0, 0xA05F0003)
T6A28 000:217.089   Debug reg: DHCSR
T6A28 000:217.299   CPU_WriteMem(4 bytes @ 0xE000EDF0)
T6A28 000:217.795 - 0.715ms returns 0 (0x00000000)
T6A28 000:217.823 JLINK_WriteU32_64(0xE000EDFC, 0x01000000)
T6A28 000:217.827   Debug reg: DEMCR
T6A28 000:217.837   CPU_WriteMem(4 bytes @ 0xE000EDFC)
T6A28 000:218.511 - 0.698ms returns 0 (0x00000000)
T6A28 000:225.920 JLINK_GetHWStatus(...)
T6A28 000:226.557 - 0.650ms returns 0
T6A28 000:232.003 JLINK_GetNumBPUnits(Type = 0xFFFFFF00)
T6A28 000:232.025 - 0.022ms returns 0x06
T6A28 000:232.029 JLINK_GetNumBPUnits(Type = 0xF0)
T6A28 000:232.032 - 0.004ms returns 0x2000
T6A28 000:232.036 JLINK_GetNumWPUnits()
T6A28 000:232.039 - 0.004ms returns 4
T6A28 000:237.081 JLINK_GetSpeed()
T6A28 000:237.101 - 0.021ms returns 4000
T6A28 000:240.250 JLINK_ReadMemU32(0xE000E004, 0x1 Items)
T6A28 000:240.279   CPU_ReadMem(4 bytes @ 0xE000E004)
T6A28 000:241.172   Data:  01 00 00 00
T6A28 000:241.180 - 0.932ms returns 1 (0x1)
T6A28 000:241.201 JLINK_ReadMemU32(0xE000E004, 0x1 Items)
T6A28 000:241.209   CPU_ReadMem(4 bytes @ 0xE000E004)
T6A28 000:241.865   Data:  01 00 00 00
T6A28 000:241.870 - 0.670ms returns 1 (0x1)
T6A28 000:241.892 JLINK_WriteMemEx(0xE0001000, 0x0000001C Bytes, Flags = 0x02000004)
T6A28 000:241.896   Data:  01 00 00 00 00 00 00 00 00 00 00 00 00 00 00 00 ...
T6A28 000:241.906   CPU_WriteMem(28 bytes @ 0xE0001000)
T6A28 000:242.517 - 0.627ms returns 0x1C
T6A28 000:242.547 JLINK_Halt()
T6A28 000:242.550 - 0.005ms returns 0x00
T6A28 000:242.554 JLINK_IsHalted()
T6A28 000:242.558 - 0.005ms returns TRUE
T6A28 000:245.168 JLINK_WriteMem(0x20000000, 0x164 Bytes, ...)
T6A28 000:245.180   Data:  00 BE 0A E0 0D 78 2D 06 68 40 08 24 40 00 00 D3 ...
T6A28 000:245.392   CPU_WriteMem(356 bytes @ 0x20000000)
T6A28 000:247.474 - 2.321ms returns 0x164
T6A28 000:247.576 JLINK_HasError()
T6A28 000:247.584 JLINK_WriteReg(R0, 0x08000000)
T6A28 000:247.596 - 0.013ms returns 0
T6A28 000:247.605 JLINK_WriteReg(R1, 0x007A1200)
T6A28 000:247.608 - 0.005ms returns 0
T6A28 000:247.612 JLINK_WriteReg(R2, 0x00000001)
T6A28 000:247.615 - 0.004ms returns 0
T6A28 000:247.619 JLINK_WriteReg(R3, 0x00000000)
T6A28 000:247.622 - 0.004ms returns 0
T6A28 000:247.626 JLINK_WriteReg(R4, 0x00000000)
T6A28 000:247.629 - 0.004ms returns 0
T6A28 000:247.633 JLINK_WriteReg(R5, 0x00000000)
T6A28 000:247.636 - 0.005ms returns 0
T6A28 000:247.640 JLINK_WriteReg(R6, 0x00000000)
T6A28 000:247.647 - 0.010ms returns 0
T6A28 000:247.652 JLINK_WriteReg(R7, 0x00000000)
T6A28 000:247.656 - 0.004ms returns 0
T6A28 000:247.659 JLINK_WriteReg(R8, 0x00000000)
T6A28 000:247.673 - 0.015ms returns 0
T6A28 000:247.677 JLINK_WriteReg(R9, 0x20000160)
T6A28 000:247.680 - 0.004ms returns 0
T6A28 000:247.683 JLINK_WriteReg(R10, 0x00000000)
T6A28 000:247.687 - 0.004ms returns 0
T6A28 000:247.690 JLINK_WriteReg(R11, 0x00000000)
T6A28 000:247.693 - 0.004ms returns 0
T6A28 000:247.697 JLINK_WriteReg(R12, 0x00000000)
T6A28 000:247.700 - 0.004ms returns 0
T6A28 000:247.704 JLINK_WriteReg(R13 (SP), 0x20001000)
T6A28 000:247.708 - 0.005ms returns 0
T6A28 000:247.712 JLINK_WriteReg(R14, 0x20000001)
T6A28 000:247.715 - 0.004ms returns 0
T6A28 000:247.719 JLINK_WriteReg(R15 (PC), 0x20000038)
T6A28 000:247.725 - 0.008ms returns 0
T6A28 000:247.729 JLINK_WriteReg(XPSR, 0x01000000)
T6A28 000:247.732 - 0.004ms returns 0
T6A28 000:247.736 JLINK_WriteReg(MSP, 0x20001000)
T6A28 000:247.739 - 0.004ms returns 0
T6A28 000:247.743 JLINK_WriteReg(PSP, 0x20001000)
T6A28 000:247.746 - 0.004ms returns 0
T6A28 000:247.750 JLINK_WriteReg(CFBP, 0x00000000)
T6A28 000:247.753 - 0.004ms returns 0
T6A28 000:247.757 JLINK_SetBPEx(Addr = 0x20000000, Type = 0xFFFFFFF2)
T6A28 000:247.769   CPU_ReadMem(2 bytes @ 0x20000000)
T6A28 000:248.400 - 0.646ms returns 0x00000001
T6A28 000:248.419 JLINK_Go()
T6A28 000:248.425   CPU_WriteMem(2 bytes @ 0x20000000)
T6A28 000:249.063   CPU_ReadMem(4 bytes @ 0xE0001000)
T6A28 000:249.625   CPU_WriteMem(4 bytes @ 0xE0002008)
T6A28 000:249.634   CPU_WriteMem(4 bytes @ 0xE000200C)
T6A28 000:249.639   CPU_WriteMem(4 bytes @ 0xE0002010)
T6A28 000:249.643   CPU_WriteMem(4 bytes @ 0xE0002014)
T6A28 000:249.647   CPU_WriteMem(4 bytes @ 0xE0002018)
T6A28 000:249.652   CPU_WriteMem(4 bytes @ 0xE000201C)
T6A28 000:250.965   CPU_WriteMem(4 bytes @ 0xE0001004)
T6A28 000:254.029 - 5.622ms
T6A28 000:254.061 JLINK_IsHalted()
T6A28 000:256.755   CPU_ReadMem(2 bytes @ 0x20000000)
T6A28 000:257.409 - 3.350ms returns TRUE
T6A28 000:257.426 JLINK_ReadReg(R15 (PC))
T6A28 000:257.432 - 0.007ms returns 0x20000000
T6A28 000:257.436 JLINK_ClrBPEx(BPHandle = 0x00000001)
T6A28 000:257.440 - 0.005ms returns 0x00
T6A28 000:257.444 JLINK_ReadReg(R0)
T6A28 000:257.447 - 0.004ms returns 0x00000000
T6A28 000:257.759 JLINK_HasError()
T6A28 000:257.770 JLINK_WriteReg(R0, 0x08000000)
T6A28 000:257.776 - 0.007ms returns 0
T6A28 000:257.779 JLINK_WriteReg(R1, 0x00000400)
T6A28 000:257.783 - 0.004ms returns 0
T6A28 000:257.786 JLINK_WriteReg(R2, 0x000000FF)
T6A28 000:257.790 - 0.004ms returns 0
T6A28 000:257.793 JLINK_WriteReg(R3, 0x00000000)
T6A28 000:257.796 - 0.004ms returns 0
T6A28 000:257.800 JLINK_WriteReg(R4, 0x00000000)
T6A28 000:257.803 - 0.004ms returns 0
T6A28 000:257.806 JLINK_WriteReg(R5, 0x00000000)
T6A28 000:257.810 - 0.004ms returns 0
T6A28 000:257.813 JLINK_WriteReg(R6, 0x00000000)
T6A28 000:257.816 - 0.004ms returns 0
T6A28 000:257.820 JLINK_WriteReg(R7, 0x00000000)
T6A28 000:257.823 - 0.004ms returns 0
T6A28 000:257.826 JLINK_WriteReg(R8, 0x00000000)
T6A28 000:257.830 - 0.005ms returns 0
T6A28 000:257.833 JLINK_WriteReg(R9, 0x20000160)
T6A28 000:257.837 - 0.004ms returns 0
T6A28 000:257.840 JLINK_WriteReg(R10, 0x00000000)
T6A28 000:257.843 - 0.004ms returns 0
T6A28 000:257.847 JLINK_WriteReg(R11, 0x00000000)
T6A28 000:257.850 - 0.004ms returns 0
T6A28 000:257.854 JLINK_WriteReg(R12, 0x00000000)
T6A28 000:257.857 - 0.004ms returns 0
T6A28 000:257.860 JLINK_WriteReg(R13 (SP), 0x20001000)
T6A28 000:257.864 - 0.005ms returns 0
T6A28 000:257.868 JLINK_WriteReg(R14, 0x20000001)
T6A28 000:257.871 - 0.004ms returns 0
T6A28 000:257.874 JLINK_WriteReg(R15 (PC), 0x20000020)
T6A28 000:257.878 - 0.004ms returns 0
T6A28 000:257.881 JLINK_WriteReg(XPSR, 0x01000000)
T6A28 000:257.884 - 0.004ms returns 0
T6A28 000:257.888 JLINK_WriteReg(MSP, 0x20001000)
T6A28 000:257.891 - 0.004ms returns 0
T6A28 000:257.895 JLINK_WriteReg(PSP, 0x20001000)
T6A28 000:257.898 - 0.004ms returns 0
T6A28 000:257.906 JLINK_WriteReg(CFBP, 0x00000000)
T6A28 000:257.911 - 0.006ms returns 0
T6A28 000:257.915 JLINK_SetBPEx(Addr = 0x20000000, Type = 0xFFFFFFF2)
T6A28 000:257.919 - 0.005ms returns 0x00000002
T6A28 000:257.923 JLINK_Go()
T6A28 000:257.933   CPU_ReadMem(4 bytes @ 0xE0001000)
T6A28 000:261.233 - 3.324ms
T6A28 000:261.287 JLINK_IsHalted()
T6A28 000:263.795   CPU_ReadMem(2 bytes @ 0x20000000)
T6A28 000:264.424 - 3.139ms returns TRUE
T6A28 000:264.443 JLINK_ReadReg(R15 (PC))
T6A28 000:264.449 - 0.007ms returns 0x20000000
T6A28 000:264.453 JLINK_ClrBPEx(BPHandle = 0x00000002)
T6A28 000:264.456 - 0.005ms returns 0x00
T6A28 000:264.460 JLINK_ReadReg(R0)
T6A28 000:264.463 - 0.004ms returns 0x00000001
T6A28 000:264.468 JLINK_HasError()
T6A28 000:264.472 JLINK_WriteReg(R0, 0x08000000)
T6A28 000:264.475 - 0.005ms returns 0
T6A28 000:264.479 JLINK_WriteReg(R1, 0x00000400)
T6A28 000:264.482 - 0.004ms returns 0
T6A28 000:264.486 JLINK_WriteReg(R2, 0x000000FF)
T6A28 000:264.489 - 0.004ms returns 0
T6A28 000:264.493 JLINK_WriteReg(R3, 0x00000000)
T6A28 000:264.496 - 0.004ms returns 0
T6A28 000:264.499 JLINK_WriteReg(R4, 0x00000000)
T6A28 000:264.503 - 0.004ms returns 0
T6A28 000:264.506 JLINK_WriteReg(R5, 0x00000000)
T6A28 000:264.510 - 0.005ms returns 0
T6A28 000:264.513 JLINK_WriteReg(R6, 0x00000000)
T6A28 000:264.516 - 0.004ms returns 0
T6A28 000:264.520 JLINK_WriteReg(R7, 0x00000000)
T6A28 000:264.523 - 0.004ms returns 0
T6A28 000:264.527 JLINK_WriteReg(R8, 0x00000000)
T6A28 000:264.530 - 0.004ms returns 0
T6A28 000:264.533 JLINK_WriteReg(R9, 0x20000160)
T6A28 000:264.537 - 0.004ms returns 0
T6A28 000:264.540 JLINK_WriteReg(R10, 0x00000000)
T6A28 000:264.543 - 0.004ms returns 0
T6A28 000:264.547 JLINK_WriteReg(R11, 0x00000000)
T6A28 000:264.550 - 0.004ms returns 0
T6A28 000:264.553 JLINK_WriteReg(R12, 0x00000000)
T6A28 000:264.557 - 0.004ms returns 0
T6A28 000:264.560 JLINK_WriteReg(R13 (SP), 0x20001000)
T6A28 000:264.564 - 0.005ms returns 0
T6A28 000:264.567 JLINK_WriteReg(R14, 0x20000001)
T6A28 000:264.570 - 0.004ms returns 0
T6A28 000:264.574 JLINK_WriteReg(R15 (PC), 0x200000B6)
T6A28 000:264.577 - 0.004ms returns 0
T6A28 000:264.581 JLINK_WriteReg(XPSR, 0x01000000)
T6A28 000:264.584 - 0.004ms returns 0
T6A28 000:264.587 JLINK_WriteReg(MSP, 0x20001000)
T6A28 000:264.590 - 0.004ms returns 0
T6A28 000:264.594 JLINK_WriteReg(PSP, 0x20001000)
T6A28 000:264.597 - 0.004ms returns 0
T6A28 000:264.601 JLINK_WriteReg(CFBP, 0x00000000)
T6A28 000:264.604 - 0.004ms returns 0
T6A28 000:264.608 JLINK_SetBPEx(Addr = 0x20000000, Type = 0xFFFFFFF2)
T6A28 000:264.614 - 0.007ms returns 0x00000003
T6A28 000:264.618 JLINK_Go()
T6A28 000:264.625   CPU_ReadMem(4 bytes @ 0xE0001000)
T6A28 000:267.455 - 2.848ms
T6A28 000:267.491 JLINK_IsHalted()
T6A28 000:268.021 - 0.539ms returns FALSE
T6A28 000:268.069 JLINK_HasError()
T6A28 000:277.560 JLINK_IsHalted()
T6A28 000:280.283   CPU_ReadMem(2 bytes @ 0x20000000)
T6A28 000:280.837 - 3.288ms returns TRUE
T6A28 000:280.876 JLINK_ReadReg(R15 (PC))
T6A28 000:280.884 - 0.009ms returns 0x20000000
T6A28 000:280.888 JLINK_ClrBPEx(BPHandle = 0x00000003)
T6A28 000:280.892 - 0.005ms returns 0x00
T6A28 000:280.896 JLINK_ReadReg(R0)
T6A28 000:280.899 - 0.004ms returns 0x00000000
T6A28 000:281.273 JLINK_HasError()
T6A28 000:281.284 JLINK_WriteReg(R0, 0x08000400)
T6A28 000:281.290 - 0.007ms returns 0
T6A28 000:281.294 JLINK_WriteReg(R1, 0x00000400)
T6A28 000:281.298 - 0.005ms returns 0
T6A28 000:281.302 JLINK_WriteReg(R2, 0x000000FF)
T6A28 000:281.305 - 0.004ms returns 0
T6A28 000:281.308 JLINK_WriteReg(R3, 0x00000000)
T6A28 000:281.312 - 0.004ms returns 0
T6A28 000:281.315 JLINK_WriteReg(R4, 0x00000000)
T6A28 000:281.318 - 0.004ms returns 0
T6A28 000:281.322 JLINK_WriteReg(R5, 0x00000000)
T6A28 000:281.325 - 0.004ms returns 0
T6A28 000:281.329 JLINK_WriteReg(R6, 0x00000000)
T6A28 000:281.332 - 0.004ms returns 0
T6A28 000:281.335 JLINK_WriteReg(R7, 0x00000000)
T6A28 000:281.338 - 0.004ms returns 0
T6A28 000:281.342 JLINK_WriteReg(R8, 0x00000000)
T6A28 000:281.402 - 0.061ms returns 0
T6A28 000:281.406 JLINK_WriteReg(R9, 0x20000160)
T6A28 000:281.409 - 0.004ms returns 0
T6A28 000:281.413 JLINK_WriteReg(R10, 0x00000000)
T6A28 000:281.416 - 0.004ms returns 0
T6A28 000:281.420 JLINK_WriteReg(R11, 0x00000000)
T6A28 000:281.423 - 0.004ms returns 0
T6A28 000:281.426 JLINK_WriteReg(R12, 0x00000000)
T6A28 000:281.429 - 0.004ms returns 0
T6A28 000:281.433 JLINK_WriteReg(R13 (SP), 0x20001000)
T6A28 000:281.437 - 0.005ms returns 0
T6A28 000:281.441 JLINK_WriteReg(R14, 0x20000001)
T6A28 000:281.444 - 0.004ms returns 0
T6A28 000:281.447 JLINK_WriteReg(R15 (PC), 0x20000020)
T6A28 000:281.451 - 0.004ms returns 0
T6A28 000:281.454 JLINK_WriteReg(XPSR, 0x01000000)
T6A28 000:281.462 - 0.009ms returns 0
T6A28 000:281.465 JLINK_WriteReg(MSP, 0x20001000)
T6A28 000:281.468 - 0.004ms returns 0
T6A28 000:281.472 JLINK_WriteReg(PSP, 0x20001000)
T6A28 000:281.475 - 0.004ms returns 0
T6A28 000:281.479 JLINK_WriteReg(CFBP, 0x00000000)
T6A28 000:281.482 - 0.004ms returns 0
T6A28 000:281.485 JLINK_SetBPEx(Addr = 0x20000000, Type = 0xFFFFFFF2)
T6A28 000:281.490 - 0.005ms returns 0x00000004
T6A28 000:281.493 JLINK_Go()
T6A28 000:281.503   CPU_ReadMem(4 bytes @ 0xE0001000)
T6A28 000:284.555 - 3.067ms
T6A28 000:284.578 JLINK_IsHalted()
T6A28 000:287.210   CPU_ReadMem(2 bytes @ 0x20000000)
T6A28 000:287.786 - 3.211ms returns TRUE
T6A28 000:287.806 JLINK_ReadReg(R15 (PC))
T6A28 000:287.813 - 0.008ms returns 0x20000000
T6A28 000:287.817 JLINK_ClrBPEx(BPHandle = 0x00000004)
T6A28 000:287.821 - 0.005ms returns 0x00
T6A28 000:287.825 JLINK_ReadReg(R0)
T6A28 000:287.828 - 0.004ms returns 0x00000001
T6A28 000:287.833 JLINK_HasError()
T6A28 000:287.837 JLINK_WriteReg(R0, 0x08000400)
T6A28 000:287.841 - 0.005ms returns 0
T6A28 000:287.845 JLINK_WriteReg(R1, 0x00000400)
T6A28 000:287.848 - 0.004ms returns 0
T6A28 000:287.851 JLINK_WriteReg(R2, 0x000000FF)
T6A28 000:287.855 - 0.004ms returns 0
T6A28 000:287.858 JLINK_WriteReg(R3, 0x00000000)
T6A28 000:287.861 - 0.004ms returns 0
T6A28 000:287.865 JLINK_WriteReg(R4, 0x00000000)
T6A28 000:287.868 - 0.004ms returns 0
T6A28 000:287.871 JLINK_WriteReg(R5, 0x00000000)
T6A28 000:287.875 - 0.004ms returns 0
T6A28 000:287.878 JLINK_WriteReg(R6, 0x00000000)
T6A28 000:287.881 - 0.004ms returns 0
T6A28 000:287.885 JLINK_WriteReg(R7, 0x00000000)
T6A28 000:287.888 - 0.004ms returns 0
T6A28 000:287.891 JLINK_WriteReg(R8, 0x00000000)
T6A28 000:287.895 - 0.004ms returns 0
T6A28 000:287.898 JLINK_WriteReg(R9, 0x20000160)
T6A28 000:287.901 - 0.004ms returns 0
T6A28 000:287.905 JLINK_WriteReg(R10, 0x00000000)
T6A28 000:287.908 - 0.004ms returns 0
T6A28 000:287.912 JLINK_WriteReg(R11, 0x00000000)
T6A28 000:287.915 - 0.004ms returns 0
T6A28 000:287.919 JLINK_WriteReg(R12, 0x00000000)
T6A28 000:287.922 - 0.004ms returns 0
T6A28 000:287.925 JLINK_WriteReg(R13 (SP), 0x20001000)
T6A28 000:287.929 - 0.005ms returns 0
T6A28 000:287.932 JLINK_WriteReg(R14, 0x20000001)
T6A28 000:287.936 - 0.004ms returns 0
T6A28 000:287.939 JLINK_WriteReg(R15 (PC), 0x200000B6)
T6A28 000:287.942 - 0.004ms returns 0
T6A28 000:287.946 JLINK_WriteReg(XPSR, 0x01000000)
T6A28 000:287.949 - 0.004ms returns 0
T6A28 000:287.953 JLINK_WriteReg(MSP, 0x20001000)
T6A28 000:287.956 - 0.004ms returns 0
T6A28 000:287.959 JLINK_WriteReg(PSP, 0x20001000)
T6A28 000:287.962 - 0.004ms returns 0
T6A28 000:287.966 JLINK_WriteReg(CFBP, 0x00000000)
T6A28 000:287.969 - 0.004ms returns 0
T6A28 000:287.973 JLINK_SetBPEx(Addr = 0x20000000, Type = 0xFFFFFFF2)
T6A28 000:287.976 - 0.005ms returns 0x00000005
T6A28 000:287.980 JLINK_Go()
T6A28 000:287.988   CPU_ReadMem(4 bytes @ 0xE0001000)
T6A28 000:291.017 - 3.048ms
T6A28 000:291.064 JLINK_IsHalted()
T6A28 000:291.612 - 0.551ms returns FALSE
T6A28 000:291.635 JLINK_HasError()
T6A28 000:294.040 JLINK_IsHalted()
T6A28 000:296.759   CPU_ReadMem(2 bytes @ 0x20000000)
T6A28 000:297.358 - 3.328ms returns TRUE
T6A28 000:297.408 JLINK_ReadReg(R15 (PC))
T6A28 000:297.417 - 0.015ms returns 0x20000000
T6A28 000:297.431 JLINK_ClrBPEx(BPHandle = 0x00000005)
T6A28 000:297.435 - 0.005ms returns 0x00
T6A28 000:297.444 JLINK_ReadReg(R0)
T6A28 000:297.447 - 0.004ms returns 0x00000000
T6A28 000:297.888 JLINK_HasError()
T6A28 000:297.898 JLINK_WriteReg(R0, 0x08000800)
T6A28 000:297.904 - 0.007ms returns 0
T6A28 000:297.908 JLINK_WriteReg(R1, 0x00000400)
T6A28 000:297.912 - 0.004ms returns 0
T6A28 000:297.915 JLINK_WriteReg(R2, 0x000000FF)
T6A28 000:297.918 - 0.004ms returns 0
T6A28 000:297.922 JLINK_WriteReg(R3, 0x00000000)
T6A28 000:297.925 - 0.004ms returns 0
T6A28 000:297.929 JLINK_WriteReg(R4, 0x00000000)
T6A28 000:297.932 - 0.004ms returns 0
T6A28 000:297.935 JLINK_WriteReg(R5, 0x00000000)
T6A28 000:297.938 - 0.004ms returns 0
T6A28 000:297.942 JLINK_WriteReg(R6, 0x00000000)
T6A28 000:297.945 - 0.005ms returns 0
T6A28 000:297.949 JLINK_WriteReg(R7, 0x00000000)
T6A28 000:297.953 - 0.004ms returns 0
T6A28 000:297.956 JLINK_WriteReg(R8, 0x00000000)
T6A28 000:297.959 - 0.004ms returns 0
T6A28 000:297.963 JLINK_WriteReg(R9, 0x20000160)
T6A28 000:297.966 - 0.004ms returns 0
T6A28 000:297.969 JLINK_WriteReg(R10, 0x00000000)
T6A28 000:297.973 - 0.004ms returns 0
T6A28 000:297.976 JLINK_WriteReg(R11, 0x00000000)
T6A28 000:297.979 - 0.004ms returns 0
T6A28 000:297.983 JLINK_WriteReg(R12, 0x00000000)
T6A28 000:297.986 - 0.004ms returns 0
T6A28 000:297.990 JLINK_WriteReg(R13 (SP), 0x20001000)
T6A28 000:297.993 - 0.005ms returns 0
T6A28 000:297.997 JLINK_WriteReg(R14, 0x20000001)
T6A28 000:298.000 - 0.004ms returns 0
T6A28 000:298.004 JLINK_WriteReg(R15 (PC), 0x20000020)
T6A28 000:298.007 - 0.004ms returns 0
T6A28 000:298.010 JLINK_WriteReg(XPSR, 0x01000000)
T6A28 000:298.014 - 0.004ms returns 0
T6A28 000:298.017 JLINK_WriteReg(MSP, 0x20001000)
T6A28 000:298.032 - 0.016ms returns 0
T6A28 000:298.036 JLINK_WriteReg(PSP, 0x20001000)
T6A28 000:298.039 - 0.004ms returns 0
T6A28 000:298.043 JLINK_WriteReg(CFBP, 0x00000000)
T6A28 000:298.046 - 0.004ms returns 0
T6A28 000:298.050 JLINK_SetBPEx(Addr = 0x20000000, Type = 0xFFFFFFF2)
T6A28 000:298.054 - 0.005ms returns 0x00000006
T6A28 000:298.058 JLINK_Go()
T6A28 000:298.068   CPU_ReadMem(4 bytes @ 0xE0001000)
T6A28 000:301.037 - 2.987ms
T6A28 000:301.065 JLINK_IsHalted()
T6A28 000:303.603   CPU_ReadMem(2 bytes @ 0x20000000)
T6A28 000:304.200 - 3.137ms returns TRUE
T6A28 000:304.220 JLINK_ReadReg(R15 (PC))
T6A28 000:304.227 - 0.008ms returns 0x20000000
T6A28 000:304.231 JLINK_ClrBPEx(BPHandle = 0x00000006)
T6A28 000:304.235 - 0.005ms returns 0x00
T6A28 000:304.239 JLINK_ReadReg(R0)
T6A28 000:304.242 - 0.004ms returns 0x00000001
T6A28 000:304.246 JLINK_HasError()
T6A28 000:304.250 JLINK_WriteReg(R0, 0x08000800)
T6A28 000:304.254 - 0.005ms returns 0
T6A28 000:304.258 JLINK_WriteReg(R1, 0x00000400)
T6A28 000:304.261 - 0.004ms returns 0
T6A28 000:304.265 JLINK_WriteReg(R2, 0x000000FF)
T6A28 000:304.268 - 0.004ms returns 0
T6A28 000:304.272 JLINK_WriteReg(R3, 0x00000000)
T6A28 000:304.275 - 0.004ms returns 0
T6A28 000:304.279 JLINK_WriteReg(R4, 0x00000000)
T6A28 000:304.283 - 0.004ms returns 0
T6A28 000:304.286 JLINK_WriteReg(R5, 0x00000000)
T6A28 000:304.289 - 0.004ms returns 0
T6A28 000:304.293 JLINK_WriteReg(R6, 0x00000000)
T6A28 000:304.296 - 0.004ms returns 0
T6A28 000:304.300 JLINK_WriteReg(R7, 0x00000000)
T6A28 000:304.303 - 0.004ms returns 0
T6A28 000:304.306 JLINK_WriteReg(R8, 0x00000000)
T6A28 000:304.309 - 0.004ms returns 0
T6A28 000:304.313 JLINK_WriteReg(R9, 0x20000160)
T6A28 000:304.316 - 0.004ms returns 0
T6A28 000:304.320 JLINK_WriteReg(R10, 0x00000000)
T6A28 000:304.323 - 0.004ms returns 0
T6A28 000:304.327 JLINK_WriteReg(R11, 0x00000000)
T6A28 000:304.330 - 0.004ms returns 0
T6A28 000:304.333 JLINK_WriteReg(R12, 0x00000000)
T6A28 000:304.336 - 0.004ms returns 0
T6A28 000:304.340 JLINK_WriteReg(R13 (SP), 0x20001000)
T6A28 000:304.344 - 0.005ms returns 0
T6A28 000:304.347 JLINK_WriteReg(R14, 0x20000001)
T6A28 000:304.350 - 0.004ms returns 0
T6A28 000:304.354 JLINK_WriteReg(R15 (PC), 0x200000B6)
T6A28 000:304.362 - 0.012ms returns 0
T6A28 000:304.368 JLINK_WriteReg(XPSR, 0x01000000)
T6A28 000:304.372 - 0.005ms returns 0
T6A28 000:304.375 JLINK_WriteReg(MSP, 0x20001000)
T6A28 000:304.378 - 0.004ms returns 0
T6A28 000:304.382 JLINK_WriteReg(PSP, 0x20001000)
T6A28 000:304.385 - 0.004ms returns 0
T6A28 000:304.389 JLINK_WriteReg(CFBP, 0x00000000)
T6A28 000:304.392 - 0.004ms returns 0
T6A28 000:304.396 JLINK_SetBPEx(Addr = 0x20000000, Type = 0xFFFFFFF2)
T6A28 000:304.400 - 0.005ms returns 0x00000007
T6A28 000:304.404 JLINK_Go()
T6A28 000:304.411   CPU_ReadMem(4 bytes @ 0xE0001000)
T6A28 000:307.462 - 3.063ms
T6A28 000:307.485 JLINK_IsHalted()
T6A28 000:308.041 - 0.558ms returns FALSE
T6A28 000:308.058 JLINK_HasError()
T6A28 000:311.007 JLINK_IsHalted()
T6A28 000:313.672   CPU_ReadMem(2 bytes @ 0x20000000)
T6A28 000:314.796 - 3.792ms returns TRUE
T6A28 000:314.817 JLINK_ReadReg(R15 (PC))
T6A28 000:314.824 - 0.008ms returns 0x20000000
T6A28 000:314.828 JLINK_ClrBPEx(BPHandle = 0x00000007)
T6A28 000:314.832 - 0.005ms returns 0x00
T6A28 000:314.836 JLINK_ReadReg(R0)
T6A28 000:314.839 - 0.004ms returns 0x00000000
T6A28 000:315.270 JLINK_HasError()
T6A28 000:315.285 JLINK_WriteReg(R0, 0x08000C00)
T6A28 000:315.291 - 0.008ms returns 0
T6A28 000:315.296 JLINK_WriteReg(R1, 0x00000400)
T6A28 000:315.299 - 0.005ms returns 0
T6A28 000:315.303 JLINK_WriteReg(R2, 0x000000FF)
T6A28 000:315.306 - 0.004ms returns 0
T6A28 000:315.310 JLINK_WriteReg(R3, 0x00000000)
T6A28 000:315.313 - 0.004ms returns 0
T6A28 000:315.316 JLINK_WriteReg(R4, 0x00000000)
T6A28 000:315.320 - 0.004ms returns 0
T6A28 000:315.323 JLINK_WriteReg(R5, 0x00000000)
T6A28 000:315.326 - 0.004ms returns 0
T6A28 000:315.330 JLINK_WriteReg(R6, 0x00000000)
T6A28 000:315.333 - 0.004ms returns 0
T6A28 000:315.337 JLINK_WriteReg(R7, 0x00000000)
T6A28 000:315.340 - 0.004ms returns 0
T6A28 000:315.344 JLINK_WriteReg(R8, 0x00000000)
T6A28 000:315.347 - 0.004ms returns 0
T6A28 000:315.351 JLINK_WriteReg(R9, 0x20000160)
T6A28 000:315.354 - 0.004ms returns 0
T6A28 000:315.357 JLINK_WriteReg(R10, 0x00000000)
T6A28 000:315.361 - 0.004ms returns 0
T6A28 000:315.364 JLINK_WriteReg(R11, 0x00000000)
T6A28 000:315.368 - 0.004ms returns 0
T6A28 000:315.371 JLINK_WriteReg(R12, 0x00000000)
T6A28 000:315.375 - 0.004ms returns 0
T6A28 000:315.378 JLINK_WriteReg(R13 (SP), 0x20001000)
T6A28 000:315.382 - 0.005ms returns 0
T6A28 000:315.386 JLINK_WriteReg(R14, 0x20000001)
T6A28 000:315.389 - 0.004ms returns 0
T6A28 000:315.393 JLINK_WriteReg(R15 (PC), 0x20000020)
T6A28 000:315.396 - 0.004ms returns 0
T6A28 000:315.399 JLINK_WriteReg(XPSR, 0x01000000)
T6A28 000:315.403 - 0.004ms returns 0
T6A28 000:315.406 JLINK_WriteReg(MSP, 0x20001000)
T6A28 000:315.410 - 0.004ms returns 0
T6A28 000:315.418 JLINK_WriteReg(PSP, 0x20001000)
T6A28 000:315.421 - 0.004ms returns 0
T6A28 000:315.425 JLINK_WriteReg(CFBP, 0x00000000)
T6A28 000:315.428 - 0.004ms returns 0
T6A28 000:315.432 JLINK_SetBPEx(Addr = 0x20000000, Type = 0xFFFFFFF2)
T6A28 000:315.436 - 0.006ms returns 0x00000008
T6A28 000:315.440 JLINK_Go()
T6A28 000:315.451   CPU_ReadMem(4 bytes @ 0xE0001000)
T6A28 000:318.543 - 3.108ms
T6A28 000:318.567 JLINK_IsHalted()
T6A28 000:321.229   CPU_ReadMem(2 bytes @ 0x20000000)
T6A28 000:321.797 - 3.233ms returns TRUE
T6A28 000:321.820 JLINK_ReadReg(R15 (PC))
T6A28 000:321.856 - 0.037ms returns 0x20000000
T6A28 000:321.860 JLINK_ClrBPEx(BPHandle = 0x00000008)
T6A28 000:321.864 - 0.005ms returns 0x00
T6A28 000:321.868 JLINK_ReadReg(R0)
T6A28 000:321.871 - 0.004ms returns 0x00000001
T6A28 000:321.876 JLINK_HasError()
T6A28 000:321.881 JLINK_WriteReg(R0, 0x08000C00)
T6A28 000:321.884 - 0.005ms returns 0
T6A28 000:321.888 JLINK_WriteReg(R1, 0x00000400)
T6A28 000:321.892 - 0.004ms returns 0
T6A28 000:321.895 JLINK_WriteReg(R2, 0x000000FF)
T6A28 000:321.898 - 0.004ms returns 0
T6A28 000:321.902 JLINK_WriteReg(R3, 0x00000000)
T6A28 000:321.905 - 0.004ms returns 0
T6A28 000:321.909 JLINK_WriteReg(R4, 0x00000000)
T6A28 000:321.918 - 0.013ms returns 0
T6A28 000:321.924 JLINK_WriteReg(R5, 0x00000000)
T6A28 000:321.927 - 0.004ms returns 0
T6A28 000:321.931 JLINK_WriteReg(R6, 0x00000000)
T6A28 000:321.934 - 0.004ms returns 0
T6A28 000:321.938 JLINK_WriteReg(R7, 0x00000000)
T6A28 000:321.941 - 0.004ms returns 0
T6A28 000:321.945 JLINK_WriteReg(R8, 0x00000000)
T6A28 000:321.948 - 0.004ms returns 0
T6A28 000:321.952 JLINK_WriteReg(R9, 0x20000160)
T6A28 000:321.955 - 0.004ms returns 0
T6A28 000:321.959 JLINK_WriteReg(R10, 0x00000000)
T6A28 000:321.962 - 0.004ms returns 0
T6A28 000:321.966 JLINK_WriteReg(R11, 0x00000000)
T6A28 000:321.969 - 0.004ms returns 0
T6A28 000:321.972 JLINK_WriteReg(R12, 0x00000000)
T6A28 000:321.976 - 0.004ms returns 0
T6A28 000:321.979 JLINK_WriteReg(R13 (SP), 0x20001000)
T6A28 000:321.983 - 0.005ms returns 0
T6A28 000:321.986 JLINK_WriteReg(R14, 0x20000001)
T6A28 000:321.990 - 0.004ms returns 0
T6A28 000:321.993 JLINK_WriteReg(R15 (PC), 0x200000B6)
T6A28 000:321.997 - 0.004ms returns 0
T6A28 000:322.000 JLINK_WriteReg(XPSR, 0x01000000)
T6A28 000:322.004 - 0.004ms returns 0
T6A28 000:322.007 JLINK_WriteReg(MSP, 0x20001000)
T6A28 000:322.010 - 0.004ms returns 0
T6A28 000:322.014 JLINK_WriteReg(PSP, 0x20001000)
T6A28 000:322.017 - 0.004ms returns 0
T6A28 000:322.021 JLINK_WriteReg(CFBP, 0x00000000)
T6A28 000:322.024 - 0.004ms returns 0
T6A28 000:322.028 JLINK_SetBPEx(Addr = 0x20000000, Type = 0xFFFFFFF2)
T6A28 000:322.032 - 0.005ms returns 0x00000009
T6A28 000:322.036 JLINK_Go()
T6A28 000:322.044   CPU_ReadMem(4 bytes @ 0xE0001000)
T6A28 000:325.195 - 3.167ms
T6A28 000:325.227 JLINK_IsHalted()
T6A28 000:325.817 - 0.593ms returns FALSE
T6A28 000:325.841 JLINK_HasError()
T6A28 000:328.618 JLINK_IsHalted()
T6A28 000:331.432   CPU_ReadMem(2 bytes @ 0x20000000)
T6A28 000:332.021 - 3.405ms returns TRUE
T6A28 000:332.039 JLINK_ReadReg(R15 (PC))
T6A28 000:332.045 - 0.007ms returns 0x20000000
T6A28 000:332.049 JLINK_ClrBPEx(BPHandle = 0x00000009)
T6A28 000:332.053 - 0.005ms returns 0x00
T6A28 000:332.056 JLINK_ReadReg(R0)
T6A28 000:332.060 - 0.004ms returns 0x00000000
T6A28 000:332.443 JLINK_HasError()
T6A28 000:332.453 JLINK_WriteReg(R0, 0x08001000)
T6A28 000:332.458 - 0.006ms returns 0
T6A28 000:332.462 JLINK_WriteReg(R1, 0x00000400)
T6A28 000:332.465 - 0.004ms returns 0
T6A28 000:332.468 JLINK_WriteReg(R2, 0x000000FF)
T6A28 000:332.472 - 0.004ms returns 0
T6A28 000:332.475 JLINK_WriteReg(R3, 0x00000000)
T6A28 000:332.478 - 0.004ms returns 0
T6A28 000:332.482 JLINK_WriteReg(R4, 0x00000000)
T6A28 000:332.485 - 0.004ms returns 0
T6A28 000:332.488 JLINK_WriteReg(R5, 0x00000000)
T6A28 000:332.492 - 0.005ms returns 0
T6A28 000:332.495 JLINK_WriteReg(R6, 0x00000000)
T6A28 000:332.499 - 0.004ms returns 0
T6A28 000:332.502 JLINK_WriteReg(R7, 0x00000000)
T6A28 000:332.505 - 0.004ms returns 0
T6A28 000:332.509 JLINK_WriteReg(R8, 0x00000000)
T6A28 000:332.512 - 0.004ms returns 0
T6A28 000:332.515 JLINK_WriteReg(R9, 0x20000160)
T6A28 000:332.518 - 0.004ms returns 0
T6A28 000:332.522 JLINK_WriteReg(R10, 0x00000000)
T6A28 000:332.525 - 0.004ms returns 0
T6A28 000:332.529 JLINK_WriteReg(R11, 0x00000000)
T6A28 000:332.532 - 0.004ms returns 0
T6A28 000:332.535 JLINK_WriteReg(R12, 0x00000000)
T6A28 000:332.538 - 0.004ms returns 0
T6A28 000:332.542 JLINK_WriteReg(R13 (SP), 0x20001000)
T6A28 000:332.545 - 0.005ms returns 0
T6A28 000:332.549 JLINK_WriteReg(R14, 0x20000001)
T6A28 000:332.552 - 0.004ms returns 0
T6A28 000:332.555 JLINK_WriteReg(R15 (PC), 0x20000020)
T6A28 000:332.559 - 0.004ms returns 0
T6A28 000:332.562 JLINK_WriteReg(XPSR, 0x01000000)
T6A28 000:332.565 - 0.004ms returns 0
T6A28 000:332.569 JLINK_WriteReg(MSP, 0x20001000)
T6A28 000:332.572 - 0.004ms returns 0
T6A28 000:332.576 JLINK_WriteReg(PSP, 0x20001000)
T6A28 000:332.579 - 0.004ms returns 0
T6A28 000:332.582 JLINK_WriteReg(CFBP, 0x00000000)
T6A28 000:332.586 - 0.010ms returns 0
T6A28 000:332.596 JLINK_SetBPEx(Addr = 0x20000000, Type = 0xFFFFFFF2)
T6A28 000:332.600 - 0.005ms returns 0x0000000A
T6A28 000:332.610 JLINK_Go()
T6A28 000:332.622   CPU_ReadMem(4 bytes @ 0xE0001000)
T6A28 000:335.701 - 3.099ms
T6A28 000:335.729 JLINK_IsHalted()
T6A28 000:338.357   CPU_ReadMem(2 bytes @ 0x20000000)
T6A28 000:338.983 - 3.264ms returns TRUE
T6A28 000:339.015 JLINK_ReadReg(R15 (PC))
T6A28 000:339.022 - 0.009ms returns 0x20000000
T6A28 000:339.027 JLINK_ClrBPEx(BPHandle = 0x0000000A)
T6A28 000:339.031 - 0.005ms returns 0x00
T6A28 000:339.034 JLINK_ReadReg(R0)
T6A28 000:339.038 - 0.004ms returns 0x00000001
T6A28 000:339.042 JLINK_HasError()
T6A28 000:339.047 JLINK_WriteReg(R0, 0x08001000)
T6A28 000:339.051 - 0.005ms returns 0
T6A28 000:339.055 JLINK_WriteReg(R1, 0x00000400)
T6A28 000:339.058 - 0.004ms returns 0
T6A28 000:339.061 JLINK_WriteReg(R2, 0x000000FF)
T6A28 000:339.065 - 0.005ms returns 0
T6A28 000:339.069 JLINK_WriteReg(R3, 0x00000000)
T6A28 000:339.072 - 0.004ms returns 0
T6A28 000:339.076 JLINK_WriteReg(R4, 0x00000000)
T6A28 000:339.079 - 0.004ms returns 0
T6A28 000:339.083 JLINK_WriteReg(R5, 0x00000000)
T6A28 000:339.086 - 0.004ms returns 0
T6A28 000:339.089 JLINK_WriteReg(R6, 0x00000000)
T6A28 000:339.092 - 0.004ms returns 0
T6A28 000:339.096 JLINK_WriteReg(R7, 0x00000000)
T6A28 000:339.099 - 0.004ms returns 0
T6A28 000:339.102 JLINK_WriteReg(R8, 0x00000000)
T6A28 000:339.106 - 0.004ms returns 0
T6A28 000:339.109 JLINK_WriteReg(R9, 0x20000160)
T6A28 000:339.112 - 0.004ms returns 0
T6A28 000:339.116 JLINK_WriteReg(R10, 0x00000000)
T6A28 000:339.119 - 0.004ms returns 0
T6A28 000:339.122 JLINK_WriteReg(R11, 0x00000000)
T6A28 000:339.126 - 0.004ms returns 0
T6A28 000:339.129 JLINK_WriteReg(R12, 0x00000000)
T6A28 000:339.132 - 0.004ms returns 0
T6A28 000:339.136 JLINK_WriteReg(R13 (SP), 0x20001000)
T6A28 000:339.139 - 0.005ms returns 0
